<Qucs Dataset 0.0.19>
<indep time 11>
  +0.00000000000000000000e+000
  +1.00000000000000000000e+000
  +2.00000000000000000000e+000
  +3.00000000000000000000e+000
  +4.00000000000000000000e+000
  +5.00000000000000000000e+000
  +6.00000000000000000000e+000
  +7.00000000000000000000e+000
  +8.00000000000000000000e+000
  +9.00000000000000000000e+000
  +1.00000000000000000000e+001
</indep>
<dep Pr1.Vt time>
  +0.00000000000000000000e+000
  +4.99999999999683097940e+000
  +4.99999999999999911182e+000
  +5.00000000000000088818e+000
  +5.00000000000000000000e+000
  +5.00000000000000088818e+000
  +5.00000000000000088818e+000
  +5.00000000000000088818e+000
  +5.00000000000000000000e+000
  +5.00000000000000000000e+000
  +5.00000000000000000000e+000
</dep>
<dep V1.It time>
  -4.99999999999999969748e-012
  -5.06338054132090970296e-012
  -5.00001450289812258562e-012
  -4.99998223941316166932e-012
  -5.00000061325185350960e-012
  -4.99998223941316166932e-012
  -4.99998779086709797400e-012
  -4.99998223941316166932e-012
  -4.99999613583569432337e-012
  -5.00000104015645892577e-012
  -5.00000104015645892577e-012
</dep>
<dep _net0.Vt time>
  +0.00000000000000000000e+000
  +5.00000000000000000000e+000
  +5.00000000000000000000e+000
  +5.00000000000000000000e+000
  +5.00000000000000000000e+000
  +5.00000000000000000000e+000
  +5.00000000000000000000e+000
  +5.00000000000000000000e+000
  +5.00000000000000000000e+000
  +5.00000000000000000000e+000
  +5.00000000000000000000e+000
</dep>
<dep _net1.Vt time>
  +5.00000000000000000000e+000
  +5.00000000000000000000e+000
  +5.00000000000000000000e+000
  +5.00000000000000000000e+000
  +5.00000000000000000000e+000
  +5.00000000000000000000e+000
  +5.00000000000000000000e+000
  +5.00000000000000000000e+000
  +5.00000000000000000000e+000
  +5.00000000000000000000e+000
  +5.00000000000000000000e+000
</dep>
<dep Vin.Vt time>
  +0.00000000000000000000e+000
  +4.99999999999683097940e+000
  +4.99999999999999911182e+000
  +5.00000000000000088818e+000
  +5.00000000000000000000e+000
  +5.00000000000000088818e+000
  +5.00000000000000088818e+000
  +5.00000000000000088818e+000
  +5.00000000000000000000e+000
  +5.00000000000000000000e+000
  +5.00000000000000000000e+000
</dep>
